;Version, 1, 0
;Iout (Igain_Fast=7e-10|Ilin_Slow=5e-11),;Iout (Igain_Fast=7e-10|Ilin_Slow=6e-11),;Iout (Igain_Fast=8e-10|Ilin_Slow=5e-11),;Iout (Igain_Fast=8e-10|Ilin_Slow=6e-11),;Iout (Igain_Fast=9e-10|Ilin_Slow=5e-11),;Iout (Igain_Fast=9e-10|Ilin_Slow=6e-11)
;X, Y,;X, Y,;X, Y,;X, Y,;X, Y,;X, Y
;Re, Re,;Re, Re,;Re, Re,;Re, Re,;Re, Re,;Re, Re
;Iout (Igain_Fast=7e-10,Ilin_Slow=5e-11), I,;Iout (Igain_Fast=7e-10,Ilin_Slow=6e-11), I,;Iout (Igain_Fast=8e-10,Ilin_Slow=5e-11), I,;Iout (Igain_Fast=8e-10,Ilin_Slow=6e-11), I,;Iout (Igain_Fast=9e-10,Ilin_Slow=5e-11), I,;Iout (Igain_Fast=9e-10,Ilin_Slow=6e-11), I
;s, A,;s, A,;s, A,;s, A,;s, A,;s, A
0,3.140705697757877e-12,0,3.14070569728404e-12,0,3.140705732868086e-12,0,3.140705732394176e-12,0,3.14070576021363e-12,0,3.14070575973972e-12
0.0003,3.598946374196863e-12,0.0003,3.5989480655211e-12,0.0003,3.598909930633294e-12,0.0003,3.598911669686799e-12,0.0003,3.598880976917951e-12,0.0003,3.598882747671465e-12
0.0005999999999999999,2.252658569079186e-10,0.0005999999999999999,2.252660454922452e-10,0.0005999999999999999,2.252619824867268e-10,0.0005999999999999999,2.252621757385107e-10,0.0005999999999999999,2.252589063929266e-10,0.0005999999999999999,2.252591010287207e-10
0.0009,5.817025668487227e-10,0.0009,5.81704053671144e-10,0.0009,6.153046215513101e-10,0.0009,6.153065548675518e-10,0.0009,6.48660983821096e-10,0.0009,6.486631941470409e-10
0.0012,1.048261389572556e-09,0.0012,1.048261635383217e-09,0.0012,1.142511341883274e-09,0.0012,1.142511465837102e-09,0.0012,1.234755097041256e-09,0.0012,1.234755055791414e-09
0.0015,8.59300895011351e-10,0.0015,8.593012398896379e-10,0.0015,9.30222056610822e-10,0.0015,9.302217157060177e-10,0.0015,1.000525023658876e-09,0.0015,1.000510430925645e-09
0.0018,8.923485666350001e-10,0.0018,8.876907287686283e-10,0.0018,9.785029486513569e-10,0.0018,9.746418057343705e-10,0.0018,1.046169840007681e-09,0.0018,1.044731339958009e-09
0.0021,7.795681051602543e-10,0.0021,7.819487495223163e-10,0.0021,8.097623861853712e-10,0.0021,8.108926900956214e-10,0.0021,8.429030269667158e-10,0.0021,8.447007566652375e-10
0.0024,6.384499278450413e-10,0.0024,6.385965428808462e-10,0.0024,6.703367534008998e-10,0.0024,6.697311564815734e-10,0.0024,7.040637272664313e-10,0.0024,7.034546611495786e-10
0.0027,5.46770677771672e-10,0.0027,5.482356991394946e-10,0.0027,5.790071896548944e-10,0.0027,5.793532139591763e-10,0.0027,6.111909736033681e-10,0.0027,6.112503771274222e-10
0.003,4.879512733136227e-10,0.003,4.883109132128473e-10,0.003,5.185230815640493e-10,0.003,5.189816915716784e-10,0.003,5.495370546961619e-10,0.003,5.50137476213707e-10
0.0033,4.501474077336747e-10,0.0033,4.496905382155193e-10,0.0033,4.807840385013978e-10,0.0033,4.80364583024959e-10,0.0033,5.118475035735451e-10,0.0033,5.107237022669733e-10
0.003599999999999999,4.241703141039711e-10,0.003599999999999999,4.216819871631606e-10,0.003599999999999999,4.544853338347247e-10,0.003599999999999999,4.512122260176763e-10,0.003599999999999999,4.846957418014716e-10,0.003599999999999999,4.809659585923595e-10
0.003899999999999999,4.049886369671231e-10,0.003899999999999999,4.069130755808464e-10,0.003899999999999999,4.347103149418161e-10,0.003899999999999999,4.379947274938905e-10,0.003899999999999999,4.637603550133125e-10,0.003899999999999999,4.68881907794264e-10
0.0042,3.947685033525306e-10,0.0042,3.976005394368082e-10,0.0042,4.260934788082026e-10,0.0042,4.277002090249245e-10,0.0042,4.568370705624325e-10,0.0042,4.577130629973441e-10
0.0045,3.88713154547509e-10,0.0045,3.887679213006181e-10,0.0045,4.190071864476519e-10,0.0045,4.187700763398438e-10,0.0045,4.485482052413555e-10,0.0045,4.482568605559237e-10
0.0048,3.821857903475226e-10,0.0048,3.820919794124367e-10,0.0048,4.12058104322639e-10,0.0048,4.117914498253124e-10,0.0048,4.415017747162669e-10,0.0048,4.413301288125024e-10
0.005099999999999999,3.776204791362198e-10,0.005099999999999999,3.77213530635235e-10,0.005099999999999999,4.066797090797321e-10,0.005099999999999999,4.065584633605998e-10,0.005099999999999999,4.35898535173941e-10,0.005099999999999999,4.356141885454525e-10
0.005399999999999999,3.73350846457754e-10,0.005399999999999999,3.731405751346734e-10,0.005399999999999999,4.022156376906609e-10,0.005399999999999999,4.020006186848591e-10,0.005399999999999999,4.313307256691227e-10,0.005399999999999999,4.30880587228222e-10
0.005699999999999999,3.696023071495977e-10,0.005699999999999999,3.693267071283471e-10,0.005699999999999999,3.983658308008624e-10,0.005699999999999999,3.985480476981053e-10,0.005699999999999999,4.273733625488603e-10,0.005699999999999999,4.269800649379243e-10
0.005999999999999999,3.656087847921771e-10,0.005999999999999999,3.655575956690251e-10,0.005999999999999999,3.954366149561649e-10,0.005999999999999999,3.951268264003989e-10,0.005999999999999999,4.234558282390328e-10,0.005999999999999999,4.235110440519205e-10
0.006299999999999999,3.596600182310841e-10,0.006299999999999999,3.598576863425609e-10,0.006299999999999999,3.921105367459188e-10,0.006299999999999999,3.923447964016769e-10,0.006299999999999999,4.200431575249114e-10,0.006299999999999999,4.201452059814481e-10
0.006599999999999999,3.560977542249743e-10,0.006599999999999999,3.56360511796136e-10,0.006599999999999999,3.885092262866094e-10,0.006599999999999999,3.885262262371189e-10,0.006599999999999999,4.171278666861223e-10,0.006599999999999999,4.172916774931769e-10
0.006899999999999999,3.531797955028417e-10,0.006899999999999999,3.531830018644854e-10,0.006899999999999999,3.844840110188701e-10,0.006899999999999999,3.841854772579281e-10,0.006899999999999999,4.145318258800792e-10,0.006899999999999999,4.14352691322591e-10
0.007199999999999999,3.498594619068968e-10,0.007199999999999999,3.500234068736664e-10,0.007199999999999999,3.821559759628108e-10,0.007199999999999999,3.817033990797175e-10,0.007199999999999999,4.112144976520549e-10,0.007199999999999999,4.112669297901484e-10
0.007499999999999999,3.455920555475427e-10,0.007499999999999999,3.452545422428348e-10,0.007499999999999999,3.798116308600702e-10,0.007499999999999999,3.797330533911376e-10,0.007499999999999999,4.070180717555004e-10,0.007499999999999999,4.069994102735984e-10
0.007799999999999999,3.286288743823375e-10,0.007799999999999999,3.319536392134247e-10,0.007799999999999999,3.772467564494548e-10,0.007799999999999999,3.771374788363888e-10,0.007799999999999999,4.045162436794707e-10,0.007799999999999999,4.043006227476406e-10
0.0081,1.799643913862486e-10,0.0081,1.988632145013229e-10,0.0081,3.745548519136655e-10,0.0081,3.745081588119377e-10,0.0081,4.022353888894608e-10,0.0081,4.023164780145643e-10
0.008399999999999999,3.961388869519909e-11,0.008399999999999999,4.46842078821417e-11,0.008399999999999999,3.718314062643538e-10,0.008399999999999999,3.719474891374523e-10,0.008399999999999999,3.99890816653128e-10,0.008399999999999999,3.99765161606648e-10
0.008699999999999999,1.106190216722274e-11,0.008699999999999999,1.122724389846742e-11,0.008699999999999999,3.690245404874104e-10,0.008699999999999999,3.693741549800817e-10,0.008699999999999999,3.97526623355425e-10,0.008699999999999999,3.973709533037338e-10
0.008999999999999999,7.859487978893068e-12,0.008999999999999999,7.607387131234526e-12,0.008999999999999999,3.663157979556685e-10,0.008999999999999999,3.666842696503803e-10,0.008999999999999999,3.953233633804693e-10,0.008999999999999999,3.952596535835755e-10
0.009299999999999999,1.07397833093916e-11,0.009299999999999999,9.979161131175896e-12,0.009299999999999999,3.641419008326805e-10,0.009299999999999999,3.64000204279697e-10,0.009299999999999999,3.931750234272911e-10,0.009299999999999999,3.931483538634172e-10
0.009599999999999999,2.574625957690329e-11,0.009599999999999999,2.184719578007746e-11,0.009599999999999999,3.619569829837724e-10,0.009599999999999999,3.61736362791028e-10,0.009599999999999999,3.910334848052449e-10,0.009599999999999999,3.910544774517904e-10
0.009899999999999999,6.293064882200833e-11,0.009899999999999999,5.515820225921952e-11,0.009899999999999999,3.593556776432488e-10,0.009899999999999999,3.59472521302359e-10,0.009899999999999999,3.890144001047263e-10,0.009899999999999999,3.890246463562428e-10
0.0102,1.149118039545238e-10,0.0102,1.090630463610086e-10,0.0102,3.567543723027253e-10,0.0102,3.566465855653016e-10,0.0102,3.869953154042077e-10,0.0102,3.869948152606952e-10
0.0105,1.404897580767193e-10,0.0105,1.388434011569002e-10,0.0105,3.541530669622017e-10,0.0105,3.533684656923586e-10,0.0105,3.849762307036891e-10,0.0105,3.849649841651477e-10
0.0108,1.52126017612303e-10,0.0108,1.506501053237542e-10,0.0108,3.514279461685156e-10,0.0108,3.500903458194156e-10,0.0108,3.829571460031705e-10,0.0108,3.829351530696001e-10
0.0111,1.943763896788474e-10,0.0111,1.86351255533066e-10,0.0111,3.472514278082339e-10,0.0111,3.466705450870469e-10,0.0111,3.809380613026519e-10,0.0111,3.809053219740525e-10
0.0114,3.207495018212338e-10,0.0114,3.038470211581836e-10,0.0114,3.007373508798825e-10,0.0114,2.903874850696075e-10,0.0114,3.790812192141894e-10,0.0114,3.789126418198751e-10
0.0117,6.834540612358361e-10,0.0117,6.844272456814202e-10,0.0117,5.259940088903127e-11,0.0117,4.459243264946722e-11,0.0117,3.773054781042949e-10,0.0117,3.771914893527798e-10
0.012,5.8466699573326e-10,0.012,5.946242816219059e-10,0.012,5.046270949397349e-12,0.012,4.784209051975814e-12,0.012,3.755297369944003e-10,0.012,3.754703368856844e-10
0.0123,4.916280601679826e-10,0.0123,4.985843071921448e-10,0.0123,3.30589207206072e-12,0.0123,3.271312132315902e-12,0.0123,3.737539958845057e-10,0.0123,3.737491844185891e-10
0.0126,4.316879293304642e-10,0.0126,4.361592408179553e-10,0.0126,3.332798836233908e-12,0.0126,3.153662953142151e-12,0.0126,3.719983843210415e-10,0.0126,3.720280319514937e-10
0.0129,3.935552488440323e-10,0.0129,3.962412368955897e-10,0.0129,3.028936487168478e-12,0.0129,3.077890576740688e-12,0.0129,3.703289879934285e-10,0.0129,3.7008012198104e-10
0.0132,3.677671538434821e-10,0.0132,3.692839599091929e-10,0.0132,3.313473523382815e-12,0.0132,3.312935908947169e-12,0.0132,3.685987861121784e-10,0.0132,3.683030873830753e-10
0.0135,3.486447875815016e-10,0.0135,3.501257081846325e-10,0.0135,3.606184595979973e-12,0.0135,3.422572236151492e-12,0.0135,3.668629624905437e-10,0.0135,3.666881646568726e-10
0.0138,3.35439423615211e-10,0.0138,3.364436877699951e-10,0.0138,4.396890285134742e-12,0.0138,4.470649918410269e-12,0.0138,3.651020588727662e-10,0.0138,3.647686755220717e-10
0.0141,3.249369959693743e-10,0.0141,3.249172319822237e-10,0.0141,1.044106842324113e-11,0.0141,1.052555514302703e-11,0.0141,3.634146946803556e-10,0.0141,3.632911531032781e-10
0.0144,2.007537875786714e-10,0.0144,2.315283278096535e-10,0.0144,4.101423741209136e-11,0.0144,4.327954907891516e-11,0.0144,3.617316527668589e-10,0.0144,3.615845656243192e-10
0.0147,2.331921515232439e-11,0.0147,3.210502619113943e-11,0.0147,9.755439812814736e-11,0.0147,9.706704140555275e-11,0.0147,3.602611784312126e-10,0.0147,3.598515070220269e-10
0.015,4.533985429386691e-12,0.015,4.919064197159342e-12,0.015,1.287309761398908e-10,0.015,1.290584189108351e-10,0.015,3.587336882532755e-10,0.015,3.584751781533675e-10
0.0153,3.345450881537933e-12,0.0153,3.435891008538199e-12,0.0153,1.367039515026945e-10,0.0153,1.345445939070458e-10,0.0153,3.568725107989248e-10,0.0153,3.569350496060622e-10
0.0156,3.051707759555133e-12,0.0156,3.142213480223134e-12,0.0156,1.425488344776346e-10,0.0156,1.255520726921764e-10,0.0156,3.549678160680002e-10,0.0156,3.545271568042177e-10
0.0159,3.48769332773845e-12,0.0159,3.48745345335751e-12,0.0159,1.676337818334894e-10,0.0159,9.341782662258462e-11,0.0159,3.521640075346561e-10,0.0159,3.514217987284367e-10
0.0162,4.088751142432042e-12,0.0162,3.964763882939133e-12,0.0162,2.160772951396277e-10,0.0162,7.290861177242357e-11,0.0162,3.435964642941085e-10,0.0162,3.377620045314998e-10
0.0165,8.009222290268194e-12,0.0165,6.907618601258071e-12,0.0165,3.996977401639537e-10,0.0165,6.357514249151009e-11,0.0165,1.168031547616383e-10,0.0165,7.632869170951404e-11
0.0168,3.381245976578188e-11,0.0168,2.575421195172903e-11,0.0168,7.661496052652178e-10,0.0168,5.784238868906141e-11,0.0168,7.799689541786954e-12,0.0168,6.446041112275862e-12
0.0171,9.227048166686127e-11,0.0171,8.110109976997805e-11,0.0171,6.362672191977264e-10,0.0171,5.460451806055247e-11,0.0171,3.583333452110372e-12,0.0171,3.245258473337452e-12
0.01740000000000001,1.319335884557113e-10,0.01740000000000001,1.264607544287476e-10,0.01740000000000001,5.252863042331297e-10,0.01740000000000001,5.217144555255337e-11,0.01740000000000001,3.257101044544665e-12,0.01740000000000001,3.04830028563161e-12
0.01770000000000001,1.419206813743396e-10,0.01770000000000001,1.39438161277427e-10,0.01770000000000001,4.579287874669531e-10,0.01770000000000001,5.174971063731966e-11,0.01770000000000001,3.185316516699725e-12,0.01770000000000001,3.311755726461894e-12
0.01800000000000001,1.528006636518519e-10,0.01800000000000001,1.460381034267625e-10,0.01800000000000001,4.158591233776609e-10,0.01800000000000001,5.208016288316006e-11,0.01800000000000001,3.099636112378284e-12,0.01800000000000001,2.829498832243464e-12
0.01830000000000001,1.945530700006313e-10,0.01830000000000001,1.758478863490205e-10,0.01830000000000001,3.892390132152531e-10,0.01830000000000001,5.376563250401906e-11,0.01830000000000001,2.95563256195387e-12,0.01830000000000001,3.19143802521565e-12
0.01860000000000001,2.917376086641409e-10,0.01860000000000001,2.369463340439418e-10,0.01860000000000001,3.709517619254786e-10,0.01860000000000001,5.614688509648212e-11,0.01860000000000001,3.117250137489004e-12,0.01860000000000001,3.208193545377179e-12
0.01890000000000001,6.881761914701548e-10,0.01890000000000001,4.969851121557818e-10,0.01890000000000001,3.573539598448007e-10,0.01890000000000001,5.862303091698967e-11,0.01890000000000001,3.376108752636422e-12,0.01890000000000001,2.875033189718697e-12
0.01920000000000002,6.040542312119209e-10,0.01920000000000002,6.583014709692666e-10,0.01920000000000002,3.477853264161672e-10,0.01920000000000002,6.169351360309722e-11,0.01920000000000002,3.495308467692602e-12,0.01920000000000002,3.085703671960158e-12
0.01950000000000002,4.988059662728396e-10,0.01950000000000002,5.423731511944138e-10,0.01950000000000002,3.408498466031793e-10,0.01950000000000002,6.462991544423411e-11,0.01950000000000002,3.412384845032731e-12,0.01950000000000002,3.782026533501482e-12
0.01980000000000002,4.314547149558858e-10,0.01980000000000002,4.552069429887076e-10,0.01980000000000002,3.339716807933118e-10,0.01980000000000002,6.693375101668131e-11,0.01980000000000002,4.147166470436523e-12,0.01980000000000002,3.84197275304855e-12
0.02010000000000002,3.879476745291752e-10,0.02010000000000002,4.032023645697341e-10,0.02010000000000002,2.062846385700439e-10,0.02010000000000002,5.051341877004447e-11,0.02010000000000002,7.325131122753731e-12,0.02010000000000002,6.674006283431502e-12
0.02040000000000002,3.591194177010991e-10,0.02040000000000002,3.698771744911184e-10,0.02040000000000002,1.438775501362373e-11,0.02040000000000002,2.462316699689069e-11,0.02040000000000002,1.604424104957953e-11,0.02040000000000002,7.810554747566526e-12
0.02070000000000002,3.379204270798672e-10,0.02070000000000002,3.455993874928428e-10,0.02070000000000002,3.640573092025075e-12,0.02070000000000002,9.143783980637877e-12,0.02070000000000002,1.895047205359068e-11,0.02070000000000002,6.688227071572113e-12
0.02100000000000003,3.227548251667514e-10,0.02100000000000003,3.282160145443098e-10,0.02100000000000003,3.249624891623155e-12,0.02100000000000003,4.144518209013518e-12,0.02100000000000003,1.52616233270736e-11,0.02100000000000003,6.256603897181187e-12
0.02130000000000003,2.447762206136457e-10,0.02130000000000003,3.084404768321016e-10,0.02130000000000003,3.211328241259069e-12,0.02130000000000003,3.178180411706701e-12,0.02130000000000003,1.352787928969889e-11,0.02130000000000003,6.454388169040018e-12
0.02160000000000003,3.080221765287386e-11,0.02160000000000003,9.102787472434022e-11,0.02160000000000003,3.148045380704167e-12,0.02160000000000003,3.17448572134797e-12,0.02160000000000003,1.455584414042351e-11,0.02160000000000003,7.736828672023834e-12
0.02190000000000003,4.529373793908261e-12,0.02190000000000003,7.342281864526577e-12,0.02190000000000003,3.091234159291731e-12,0.02190000000000003,3.226553538203589e-12,0.02190000000000003,1.819487337234615e-11,0.02190000000000003,1.123747969522307e-11
0.02220000000000003,3.159198552590959e-12,0.02220000000000003,3.464048477739433e-12,0.02220000000000003,3.118688805630528e-12,0.02220000000000003,3.040891110451347e-12,0.02220000000000003,2.4946317273638e-11,0.02220000000000003,1.900691818655543e-11
0.02250000000000003,3.13797890206546e-12,0.02250000000000003,3.123017773652031e-12,0.02250000000000003,3.405336296867367e-12,0.02250000000000003,3.223961319504932e-12,0.02250000000000003,3.416297830424919e-11,0.02250000000000003,3.102485981560277e-11
0.02280000000000004,3.185263709389259e-12,0.02280000000000004,3.184572492983428e-12,0.02280000000000004,4.612424503939588e-12,0.02280000000000004,3.023005659771789e-12,0.02280000000000004,4.494461955221412e-11,0.02280000000000004,4.717615854271672e-11
0.02310000000000004,3.424794114862004e-12,0.02310000000000004,3.293130614627137e-12,0.02310000000000004,1.132800211510822e-11,0.02310000000000004,3.072541265643801e-12,0.02310000000000004,5.440971133101836e-11,0.02310000000000004,6.090873888369518e-11
0.02340000000000004,4.398245009995931e-12,0.02340000000000004,3.686746429750887e-12,0.02340000000000004,3.925667993241409e-11,0.02340000000000004,3.059467411828876e-12,0.02340000000000004,5.110722474538189e-11,0.02340000000000004,6.656696523221712e-11
0.02370000000000004,8.182731746047498e-12,0.02370000000000004,5.25653847846474e-12,0.02370000000000004,8.367357542518279e-11,0.02370000000000004,3.08494697872675e-12,0.02370000000000004,2.799078636342847e-11,0.02370000000000004,4.543825157283819e-11
0.02400000000000004,2.968392459252887e-11,0.02400000000000004,1.544820532548676e-11,0.02400000000000004,1.124238725900617e-10,0.02400000000000004,3.230546793213637e-12,0.02400000000000004,1.082100415748439e-11,0.02400000000000004,2.043745546279759e-11
0.02430000000000004,7.872052346475759e-11,0.02430000000000004,5.432070566153311e-11,0.02430000000000004,7.210583441490371e-11,0.02430000000000004,3.139587823011068e-12,0.02430000000000004,4.950056115551679e-12,0.02430000000000004,7.726766279442311e-12
0.02460000000000005,1.197679256365335e-10,0.02460000000000005,1.050900188583218e-10,0.02460000000000005,4.116412234339746e-11,0.02460000000000005,3.254848468823706e-12,0.02460000000000005,3.480124563695368e-12,0.02460000000000005,3.68851664889547e-12
0.02490000000000005,1.320398468343279e-10,0.02490000000000005,1.266612242941327e-10,0.02490000000000005,3.104859041840045e-11,0.02490000000000005,3.059214288523811e-12,0.02490000000000005,2.939302836975085e-12,0.02490000000000005,2.917669932358323e-12
0.02520000000000005,1.341027112850753e-10,0.02520000000000005,1.067783569935559e-10,0.02520000000000005,2.829854848919323e-11,0.02520000000000005,3.299852365230912e-12,0.02520000000000005,2.93331780091426e-12,0.02520000000000005,3.545538742968194e-12
0.02550000000000005,1.390923896349869e-10,0.02550000000000005,6.438556239745882e-11,0.02550000000000005,2.89099658784187e-11,0.02550000000000005,3.31926332545154e-12,0.02550000000000005,3.086015083974723e-12,0.02550000000000005,2.886408879007553e-12
0.02580000000000005,1.255368864107594e-10,0.02580000000000005,4.972875838519058e-11,0.02580000000000005,2.35603667174952e-11,0.02580000000000005,3.310142991566591e-12,0.02580000000000005,3.158014412868081e-12,0.02580000000000005,2.636483392605185e-12
0.02610000000000005,1.010416520994894e-10,0.02610000000000005,4.391456139334477e-11,0.02610000000000005,1.062988750830793e-11,0.02610000000000005,3.776245669416699e-12,0.02610000000000005,2.929926877488122e-12,0.02610000000000005,2.729529103725548e-12
